T777C 000:115.128   SEGGER J-Link V7.96k Log File
T777C 000:115.253   DLL Compiled: Jun  5 2024 13:20:19
T777C 000:115.259   Logging started @ 2024-10-14 07:46
T777C 000:115.265   Process: C:\Users\weijie.huang\AppData\Local\Keil_v5\UV4\UV4.exe
T777C 000:115.275 - 115.271ms
T777C 000:115.288 JLINK_SetWarnOutHandler(...)
T777C 000:115.293 - 0.007ms
T777C 000:115.300 JLINK_OpenEx(...)
T777C 000:117.177   Firmware: J-Link V9 compiled Dec 13 2022 11:14:50
T777C 000:117.657   Firmware: J-Link V9 compiled Dec 13 2022 11:14:50
T777C 000:117.805   Decompressing FW timestamp took 117 us
T777C 000:122.782   Hardware: V9.70
T777C 000:122.796   S/N: 69730355
T777C 000:122.804   OEM: SEGGER
T777C 000:122.812   Feature(s): RDI, GDB, FlashDL, FlashBP, JFlash
T777C 000:123.426   Bootloader: (Could not read)
T777C 000:124.338   TELNET listener socket opened on port 19021
T777C 000:124.707   WEBSRV WEBSRV_Init(): Starting webserver thread(s)
T777C 000:124.881   WEBSRV Webserver running on local port 19080
T777C 000:125.072   Looking for J-Link GUI Server exe at: C:\Users\weijie.huang\AppData\Local\Keil_v5\ARM\Segger\JLinkGUIServer.exe
T777C 000:125.251   Looking for J-Link GUI Server exe at: C:\Program Files\SEGGER\JLink_V796k\JLinkGUIServer.exe
T777C 000:432.405   Failed to connect to J-Link GUI Server.
T777C 000:432.507 - 317.182ms returns "O.K."
T777C 000:432.537 JLINK_GetEmuCaps()
T777C 000:432.550 - 0.010ms returns 0xB9FF7BBF
T777C 000:432.563 JLINK_TIF_GetAvailable(...)
T777C 000:432.736 - 0.174ms
T777C 000:432.775 JLINK_SetErrorOutHandler(...)
T777C 000:432.781 - 0.005ms
T777C 000:432.816 JLINK_ExecCommand("ProjectFile = "D:\STU\NFTL\GD32F4xx_Demo_Suites_V2.6.4\GD32F4xx_Demo_Suites_V2.6.4\GD32450I_EVAL_Demo_Suites\Projects\GDNFTL\MDK-ARM\JLinkSettings.ini"", ...). 
T777C 000:464.445   Ref file found at: C:\Users\weijie.huang\AppData\Local\Keil_v5\ARM\Segger\JLinkDevices.ref
T777C 000:464.650   REF file references invalid XML file: C:\Program Files\SEGGER\JLink_V796k\JLinkDevices.xml
T777C 000:468.162 - 35.348ms returns 0x00
T777C 000:468.237 JLINK_ExecCommand("Device = GD32F450IG", ...). 
T777C 000:469.692   Device "GD32F450IG" selected.
T777C 000:470.323 - 2.075ms returns 0x00
T777C 000:470.341 JLINK_ExecCommand("DisableConnectionTimeout", ...). 
T777C 000:470.349   ERROR: Unknown command
T777C 000:470.357 - 0.009ms returns 0x01
T777C 000:470.364 JLINK_GetHardwareVersion()
T777C 000:470.373 - 0.005ms returns 97000
T777C 000:470.379 JLINK_GetDLLVersion()
T777C 000:470.384 - 0.005ms returns 79611
T777C 000:470.390 JLINK_GetOEMString(...)
T777C 000:470.397 JLINK_GetFirmwareString(...)
T777C 000:470.401 - 0.004ms
T777C 000:470.436 JLINK_GetDLLVersion()
T777C 000:470.441 - 0.005ms returns 79611
T777C 000:470.449 JLINK_GetCompileDateTime()
T777C 000:470.454 - 0.005ms
T777C 000:470.464 JLINK_GetFirmwareString(...)
T777C 000:470.470 - 0.005ms
T777C 000:470.770 JLINK_GetHardwareVersion()
T777C 000:470.795 - 0.026ms returns 97000
T777C 000:470.815 JLINK_GetSN()
T777C 000:470.825 - 0.009ms returns 69730355
T777C 000:470.838 JLINK_GetOEMString(...)
T777C 000:470.932 JLINK_TIF_Select(JLINKARM_TIF_SWD)
T777C 000:471.739 - 0.806ms returns 0x00
T777C 000:471.757 JLINK_HasError()
T777C 000:471.781 JLINK_SetSpeed(5000)
T777C 000:471.872 - 0.096ms
T777C 000:471.881 JLINK_GetId()
T777C 000:472.007   InitTarget() start
T777C 000:472.020    J-Link Script File: Executing InitTarget()
T777C 000:473.512   DAP initialized successfully.
T777C 000:474.028     No Protection is set.
T777C 000:474.053   InitTarget() end - Took 2.03ms
T777C 000:474.594   Found SW-DP with ID 0x2BA01477
T777C 000:475.670   Old FW that does not support reading DPIDR via DAP jobs
T777C 000:476.282   DPv0 detected
T777C 000:476.309   CoreSight SoC-400 or earlier
T777C 000:476.320   Scanning AP map to find all available APs
T777C 000:476.799   AP[1]: Stopped AP scan as end of AP map has been reached
T777C 000:476.831   AP[0]: AHB-AP (IDR: 0x24770011)
T777C 000:476.841   Iterating through AP map to find AHB-AP to use
T777C 000:477.559   AP[0]: Core found
T777C 000:477.633   AP[0]: AHB-AP ROM base: 0xE00FF000
T777C 000:478.087   CPUID register: 0x410FC241. Implementer code: 0x41 (ARM)
T777C 000:478.114   Found Cortex-M4 r0p1, Little endian.
T777C 000:478.380   -- Max. mem block: 0x00010BB0
T777C 000:478.744   CPU_ReadMem(4 bytes @ 0xE000EDF0)
T777C 000:478.972   CPU_WriteMem(4 bytes @ 0xE000EDF0)
T777C 000:479.219   CPU_ReadMem(4 bytes @ 0xE0002000)
T777C 000:479.461   FPUnit: 6 code (BP) slots and 2 literal slots
T777C 000:479.483   CPU_ReadMem(4 bytes @ 0xE000EDFC)
T777C 000:479.732   CPU_WriteMem(4 bytes @ 0xE000EDFC)
T777C 000:480.026   CPU_ReadMem(4 bytes @ 0xE0001000)
T777C 000:480.251   CPU_WriteMem(4 bytes @ 0xE0001000)
T777C 000:480.463   CPU_ReadMem(4 bytes @ 0xE000ED88)
T777C 000:480.731   CPU_WriteMem(4 bytes @ 0xE000ED88)
T777C 000:480.941   CPU_ReadMem(4 bytes @ 0xE000ED88)
T777C 000:481.162   CPU_WriteMem(4 bytes @ 0xE000ED88)
T777C 000:481.428   CoreSight components:
T777C 000:481.440   ROMTbl[0] @ E00FF000
T777C 000:481.449   CPU_ReadMem(64 bytes @ 0xE00FF000)
T777C 000:481.954   CPU_ReadMem(32 bytes @ 0xE000EFE0)
T777C 000:482.433   [0][0]: E000E000 CID B105E00D PID 000BB00C SCS-M7
T777C 000:482.444   CPU_ReadMem(32 bytes @ 0xE0001FE0)
T777C 000:482.857   [0][1]: E0001000 CID B105E00D PID 003BB002 DWT
T777C 000:482.869   CPU_ReadMem(32 bytes @ 0xE0002FE0)
T777C 000:483.259   [0][2]: E0002000 CID B105E00D PID 002BB003 FPB
T777C 000:483.274   CPU_ReadMem(32 bytes @ 0xE0000FE0)
T777C 000:483.633   [0][3]: E0000000 CID B105E00D PID 003BB001 ITM
T777C 000:483.644   CPU_ReadMem(32 bytes @ 0xE0040FE0)
T777C 000:484.091   [0][4]: E0040000 CID B105900D PID 000BB9A1 TPIU
T777C 000:484.136   CPU_ReadMem(32 bytes @ 0xE0041FE0)
T777C 000:484.537   [0][5]: E0041000 CID 00000000 PID 00000000 ???
T777C 000:484.730 - 12.848ms returns 0x2BA01477
T777C 000:484.745 JLINK_GetDLLVersion()
T777C 000:484.751 - 0.005ms returns 79611
T777C 000:484.757 JLINK_CORE_GetFound()
T777C 000:484.763 - 0.005ms returns 0xE0000FF
T777C 000:484.770 JLINK_GetDebugInfo(0x100 = JLINKARM_ROM_TABLE_ADDR_INDEX)
T777C 000:484.775   Value=0xE00FF000
T777C 000:484.783 - 0.013ms returns 0
T777C 000:484.796 JLINK_GetDebugInfo(0x100 = JLINKARM_ROM_TABLE_ADDR_INDEX)
T777C 000:484.801   Value=0xE00FF000
T777C 000:484.809 - 0.013ms returns 0
T777C 000:484.815 JLINK_GetDebugInfo(0x101 = JLINKARM_DEBUG_INFO_ETM_ADDR_INDEX)
T777C 000:484.820   Value=0x00000000
T777C 000:484.828 - 0.013ms returns 0
T777C 000:484.841 JLINK_ReadMemEx(0xE0041FF0, 0x10 Bytes, Flags = 0x02000004)
T777C 000:484.863   CPU_ReadMem(16 bytes @ 0xE0041FF0)
T777C 000:485.127   Data:  00 00 00 00 00 00 00 00 00 00 00 00 00 00 00 00
T777C 000:485.136 - 0.295ms returns 16 (0x10)
T777C 000:485.143 JLINK_GetDebugInfo(0x102 = JLINKARM_DEBUG_INFO_MTB_ADDR_INDEX)
T777C 000:485.149   Value=0x00000000
T777C 000:485.157 - 0.013ms returns 0
T777C 000:485.163 JLINK_GetDebugInfo(0x103 = JLINKARM_DEBUG_INFO_TPIU_ADDR_INDEX)
T777C 000:485.168   Value=0xE0040000
T777C 000:485.176 - 0.013ms returns 0
T777C 000:485.182 JLINK_GetDebugInfo(0x104 = JLINKARM_DEBUG_INFO_ITM_ADDR_INDEX)
T777C 000:485.189   Value=0xE0000000
T777C 000:485.196 - 0.014ms returns 0
T777C 000:485.203 JLINK_GetDebugInfo(0x105 = JLINKARM_DEBUG_INFO_DWT_ADDR_INDEX)
T777C 000:485.209   Value=0xE0001000
T777C 000:485.217 - 0.014ms returns 0
T777C 000:485.226 JLINK_GetDebugInfo(0x106 = JLINKARM_DEBUG_INFO_FPB_ADDR_INDEX)
T777C 000:485.233   Value=0xE0002000
T777C 000:485.243 - 0.017ms returns 0
T777C 000:485.251 JLINK_GetDebugInfo(0x107 = JLINKARM_DEBUG_INFO_NVIC_ADDR_INDEX)
T777C 000:485.258   Value=0xE000E000
T777C 000:485.268 - 0.017ms returns 0
T777C 000:485.274 JLINK_GetDebugInfo(0x10C = JLINKARM_DEBUG_INFO_DBG_ADDR_INDEX)
T777C 000:485.280   Value=0xE000EDF0
T777C 000:485.288 - 0.013ms returns 0
T777C 000:485.294 JLINK_GetDebugInfo(0x01 = Unknown)
T777C 000:485.299   Value=0x00000001
T777C 000:485.307 - 0.013ms returns 0
T777C 000:485.315 JLINK_ReadMemU32(0xE000ED00, 0x1 Items)
T777C 000:485.322   CPU_ReadMem(4 bytes @ 0xE000ED00)
T777C 000:485.554   Data:  41 C2 0F 41
T777C 000:485.567   Debug reg: CPUID
T777C 000:485.576 - 0.261ms returns 1 (0x1)
T777C 000:485.584 JLINK_GetDebugInfo(0x10F = JLINKARM_DEBUG_INFO_HAS_CORTEX_M_SECURITY_EXT_INDEX)
T777C 000:485.589   Value=0x00000000
T777C 000:485.597 - 0.013ms returns 0
T777C 000:485.604 JLINK_HasError()
T777C 000:485.611 JLINK_SetResetType(JLINKARM_CM3_RESET_TYPE_NORMAL)
T777C 000:485.617 - 0.006ms returns JLINKARM_CM3_RESET_TYPE_NORMAL
T777C 000:485.624 JLINK_Reset()
T777C 000:485.639   CPU is running
T777C 000:485.648   CPU_WriteMem(4 bytes @ 0xE000EDF0)
T777C 000:485.906   CPU is running
T777C 000:485.919   CPU_WriteMem(4 bytes @ 0xE000EDFC)
T777C 000:486.197   Reset: Halt core after reset via DEMCR.VC_CORERESET.
T777C 000:486.554   Reset: Reset device via AIRCR.SYSRESETREQ.
T777C 000:486.568   CPU is running
T777C 000:486.579   CPU_WriteMem(4 bytes @ 0xE000ED0C)
T777C 000:539.736   CPU_ReadMem(4 bytes @ 0xE000EDF0)
T777C 000:539.973   CPU_ReadMem(4 bytes @ 0xE000EDF0)
T777C 000:542.285   CPU_WriteMem(4 bytes @ 0xE000EDFC)
T777C 000:547.993   CPU_ReadMem(4 bytes @ 0xE000EDF0)
T777C 000:550.063   CPU_WriteMem(4 bytes @ 0xE0002000)
T777C 000:550.303   CPU_ReadMem(4 bytes @ 0xE000EDFC)
T777C 000:550.536   CPU_ReadMem(4 bytes @ 0xE0001000)
T777C 000:550.925 - 65.301ms
T777C 000:551.066 JLINK_HasError()
T777C 000:551.089 JLINK_ReadReg(R15 (PC))
T777C 000:551.098 - 0.023ms returns 0x080001C0
T777C 000:551.105 JLINK_ReadReg(XPSR)
T777C 000:551.111 - 0.005ms returns 0x01000000
T777C 000:551.118 JLINK_Halt()
T777C 000:551.123 - 0.005ms returns 0x00
T777C 000:551.130 JLINK_ReadMemU32(0xE000EDF0, 0x1 Items)
T777C 000:551.140   CPU_ReadMem(4 bytes @ 0xE000EDF0)
T777C 000:551.349   Data:  03 00 03 00
T777C 000:551.358   Debug reg: DHCSR
T777C 000:551.366 - 0.236ms returns 1 (0x1)
T777C 000:551.373 JLINK_WriteU32_64(0xE000EDF0, 0xA05F0003)
T777C 000:551.378   Debug reg: DHCSR
T777C 000:551.661   CPU_WriteMem(4 bytes @ 0xE000EDF0)
T777C 000:551.919 - 0.546ms returns 0 (0x00000000)
T777C 000:551.928 JLINK_WriteU32_64(0xE000EDFC, 0x01000000)
T777C 000:551.934   Debug reg: DEMCR
T777C 000:551.943   CPU_WriteMem(4 bytes @ 0xE000EDFC)
T777C 000:552.186 - 0.257ms returns 0 (0x00000000)
T777C 000:552.223 JLINK_GetHWStatus(...)
T777C 000:552.336 - 0.112ms returns 0
T777C 000:552.354 JLINK_GetNumBPUnits(Type = 0xFFFFFF00)
T777C 000:552.360 - 0.006ms returns 0x06
T777C 000:552.366 JLINK_GetNumBPUnits(Type = 0xF0)
T777C 000:552.371 - 0.005ms returns 0x2000
T777C 000:552.378 JLINK_GetNumWPUnits()
T777C 000:552.383 - 0.005ms returns 4
T777C 000:552.395 JLINK_GetSpeed()
T777C 000:552.401 - 0.005ms returns 4000
T777C 000:552.411 JLINK_ReadMemU32(0xE000E004, 0x1 Items)
T777C 000:552.418   CPU_ReadMem(4 bytes @ 0xE000E004)
T777C 000:552.646   Data:  02 00 00 00
T777C 000:552.655 - 0.244ms returns 1 (0x1)
T777C 000:552.662 JLINK_ReadMemU32(0xE000E004, 0x1 Items)
T777C 000:552.668   CPU_ReadMem(4 bytes @ 0xE000E004)
T777C 000:552.907   Data:  02 00 00 00
T777C 000:552.915 - 0.253ms returns 1 (0x1)
T777C 000:552.923 JLINK_WriteMemEx(0xE0001000, 0x0000001C Bytes, Flags = 0x02000004)
T777C 000:552.928   Data:  01 00 00 00 00 00 00 00 00 00 00 00 00 00 00 00 ...
T777C 000:552.939   CPU_WriteMem(28 bytes @ 0xE0001000)
T777C 000:553.255 - 0.332ms returns 0x1C
T777C 000:553.263 JLINK_HasError()
T777C 000:553.270 JLINK_ReadReg(R15 (PC))
T777C 000:553.276 - 0.006ms returns 0x080001C0
T777C 000:553.282 JLINK_ReadReg(XPSR)
T777C 000:553.288 - 0.005ms returns 0x01000000
T777C 000:556.498 JLINK_ReadMemEx(0xE0001004, 0x4 Bytes, Flags = 0x02000000)
T777C 000:556.533   Data:  00 00 00 00
T777C 000:556.542   Debug reg: DWT_CYCCNT
T777C 000:556.550 - 0.052ms returns 4 (0x4)
T777C 000:649.518 JLINK_HasError()
T777C 000:649.565 JLINK_SetResetType(JLINKARM_CM3_RESET_TYPE_NORMAL)
T777C 000:649.576 - 0.010ms returns JLINKARM_CM3_RESET_TYPE_NORMAL
T777C 000:649.586 JLINK_Reset()
T777C 000:649.606   CPU_WriteMem(4 bytes @ 0xE000EDF0)
T777C 000:649.918   CPU_WriteMem(4 bytes @ 0xE000EDFC)
T777C 000:650.242   Reset: Halt core after reset via DEMCR.VC_CORERESET.
T777C 000:650.506   Reset: Reset device via AIRCR.SYSRESETREQ.
T777C 000:650.514   CPU_WriteMem(4 bytes @ 0xE000ED0C)
T777C 000:703.434   CPU_ReadMem(4 bytes @ 0xE000EDF0)
T777C 000:703.730   CPU_ReadMem(4 bytes @ 0xE000EDF0)
T777C 000:703.988   CPU_WriteMem(4 bytes @ 0xE000EDFC)
T777C 000:709.500   CPU_ReadMem(4 bytes @ 0xE000EDF0)
T777C 000:711.809   CPU_WriteMem(4 bytes @ 0xE0002000)
T777C 000:712.133   CPU_ReadMem(4 bytes @ 0xE000EDFC)
T777C 000:712.363   CPU_ReadMem(4 bytes @ 0xE0001000)
T777C 000:712.598 - 63.011ms
T777C 000:712.784 JLINK_HasError()
T777C 000:712.810 JLINK_ReadReg(R15 (PC))
T777C 000:712.825 - 0.013ms returns 0x080001C0
T777C 000:712.836 JLINK_ReadReg(XPSR)
T777C 000:712.845 - 0.009ms returns 0x01000000
T777C 001:652.434 JLINK_ReadMemEx(0x40013C00, 0x14 Bytes, Flags = 0x02000004)
T777C 001:652.484   CPU_ReadMem(20 bytes @ 0x40013C00)
T777C 001:652.849   Data:  00 00 00 00 00 00 00 00 00 00 00 00 00 00 00 00 ...
T777C 001:652.861 - 0.427ms returns 20 (0x14)
T777C 001:652.877 JLINK_ReadMemEx(0x40013C14, 0x4 Bytes, Flags = 0x02000004)
T777C 001:652.884   CPU_ReadMem(4 bytes @ 0x40013C14)
T777C 001:653.141   Data:  00 00 00 00
T777C 001:653.150 - 0.273ms returns 4 (0x4)
T777C 002:061.911 JLINK_ReadMemEx(0x40007000, 0x4 Bytes, Flags = 0x02000004)
T777C 002:061.958   CPU_ReadMem(4 bytes @ 0x40007000)
T777C 002:062.266   Data:  00 C0 00 00
T777C 002:062.279 - 0.368ms returns 4 (0x4)
T777C 002:062.288 JLINK_ReadMemEx(0x40007004, 0x4 Bytes, Flags = 0x02000004)
T777C 002:062.296   CPU_ReadMem(4 bytes @ 0x40007004)
T777C 002:062.518   Data:  00 00 00 00
T777C 002:062.527 - 0.238ms returns 4 (0x4)
T777C 002:472.837 JLINK_ReadMemEx(0x40011000, 0x14 Bytes, Flags = 0x02000004)
T777C 002:472.882   CPU_ReadMem(20 bytes @ 0x40011000)
T777C 002:473.278   Data:  C0 00 00 00 00 00 00 00 00 00 00 00 00 00 00 00 ...
T777C 002:473.293 - 0.456ms returns 20 (0x14)
T777C 002:473.302 JLINK_ReadMemEx(0x40011014, 0x4 Bytes, Flags = 0x02000004)
T777C 002:473.308   CPU_ReadMem(4 bytes @ 0x40011014)
T777C 002:473.523   Data:  00 00 00 00
T777C 002:473.548 - 0.246ms returns 4 (0x4)
T777C 002:473.559 JLINK_ReadMemEx(0x4001101C, 0x4 Bytes, Flags = 0x02000004)
T777C 002:473.569   CPU_ReadMem(4 bytes @ 0x4001101C)
T777C 002:473.849   Data:  00 00 00 00
T777C 002:473.866 - 0.306ms returns 4 (0x4)
T777C 002:473.876 JLINK_ReadMemEx(0x40011080, 0x8 Bytes, Flags = 0x02000004)
T777C 002:473.884   CPU_ReadMem(8 bytes @ 0x40011080)
T777C 002:474.152   Data:  00 00 00 00 00 00 00 00
T777C 002:474.161 - 0.285ms returns 8 (0x8)
T777C 002:474.168 JLINK_ReadMemEx(0x40011088, 0x4 Bytes, Flags = 0x02000004)
T777C 002:474.174   CPU_ReadMem(4 bytes @ 0x40011088)
T777C 002:474.410   Data:  00 00 00 00
T777C 002:474.419 - 0.251ms returns 4 (0x4)
T777C 002:474.426 JLINK_ReadMemEx(0x400110C0, 0x4 Bytes, Flags = 0x02000004)
T777C 002:474.432   CPU_ReadMem(4 bytes @ 0x400110C0)
T777C 002:474.642   Data:  00 00 00 00
T777C 002:474.650 - 0.224ms returns 4 (0x4)
T777C 007:880.509 JLINK_HasError()
T777C 007:880.548 JLINK_ReadReg(R0)
T777C 007:880.805 - 0.267ms returns 0x00000000
T777C 007:880.812 JLINK_ReadReg(R1)
T777C 007:880.817 - 0.005ms returns 0x00000003
T777C 007:880.822 JLINK_ReadReg(R2)
T777C 007:880.828 - 0.005ms returns 0x80000200
T777C 007:880.833 JLINK_ReadReg(R3)
T777C 007:880.838 - 0.005ms returns 0x04C11DB7
T777C 007:880.844 JLINK_ReadReg(R4)
T777C 007:880.849 - 0.005ms returns 0x00000000
T777C 007:880.854 JLINK_ReadReg(R5)
T777C 007:880.860 - 0.004ms returns 0x00000000
T777C 007:880.865 JLINK_ReadReg(R6)
T777C 007:880.870 - 0.005ms returns 0x00000000
T777C 007:880.876 JLINK_ReadReg(R7)
T777C 007:880.881 - 0.004ms returns 0x00000000
T777C 007:880.886 JLINK_ReadReg(R8)
T777C 007:880.891 - 0.005ms returns 0x00000000
T777C 007:880.897 JLINK_ReadReg(R9)
T777C 007:880.902 - 0.004ms returns 0x20000348
T777C 007:880.908 JLINK_ReadReg(R10)
T777C 007:880.956 - 0.048ms returns 0x00000000
T777C 007:880.963 JLINK_ReadReg(R11)
T777C 007:880.968 - 0.005ms returns 0x00000000
T777C 007:880.973 JLINK_ReadReg(R12)
T777C 007:880.979 - 0.005ms returns 0x00000000
T777C 007:880.985 JLINK_ReadReg(R13 (SP))
T777C 007:880.990 - 0.005ms returns 0x20005370
T777C 007:880.996 JLINK_ReadReg(R14)
T777C 007:881.001 - 0.005ms returns 0xFFFFFFFF
T777C 007:881.006 JLINK_ReadReg(R15 (PC))
T777C 007:881.012 - 0.005ms returns 0x080001C0
T777C 007:881.017 JLINK_ReadReg(XPSR)
T777C 007:881.022 - 0.005ms returns 0x01000000
T777C 007:881.028 JLINK_ReadReg(MSP)
T777C 007:881.033 - 0.005ms returns 0x20005370
T777C 007:881.039 JLINK_ReadReg(PSP)
T777C 007:881.044 - 0.005ms returns 0x20001000
T777C 007:881.049 JLINK_ReadReg(CFBP)
T777C 007:881.054 - 0.004ms returns 0x00000000
T777C 007:881.061 JLINK_ReadReg(FPSCR)
T777C 007:883.854 - 2.793ms returns 0x00000000
T777C 007:883.865 JLINK_ReadReg(FPS0)
T777C 007:883.871 - 0.005ms returns 0x86061790
T777C 007:883.967 JLINK_ReadReg(FPS1)
T777C 007:883.973 - 0.005ms returns 0xADE4C008
T777C 007:883.978 JLINK_ReadReg(FPS2)
T777C 007:883.983 - 0.005ms returns 0x726C7902
T777C 007:883.989 JLINK_ReadReg(FPS3)
T777C 007:883.994 - 0.005ms returns 0x21FFDEC9
T777C 007:884.000 JLINK_ReadReg(FPS4)
T777C 007:884.005 - 0.005ms returns 0x69B5E033
T777C 007:884.010 JLINK_ReadReg(FPS5)
T777C 007:884.015 - 0.004ms returns 0x55E4E0DC
T777C 007:884.021 JLINK_ReadReg(FPS6)
T777C 007:884.025 - 0.004ms returns 0xE3549700
T777C 007:884.032 JLINK_ReadReg(FPS7)
T777C 007:884.037 - 0.005ms returns 0x71445402
T777C 007:884.042 JLINK_ReadReg(FPS8)
T777C 007:884.047 - 0.004ms returns 0xE3D91C90
T777C 007:884.053 JLINK_ReadReg(FPS9)
T777C 007:884.057 - 0.004ms returns 0xDEE0EA4B
T777C 007:884.064 JLINK_ReadReg(FPS10)
T777C 007:884.069 - 0.005ms returns 0xDEDA6AD9
T777C 007:884.074 JLINK_ReadReg(FPS11)
T777C 007:884.079 - 0.005ms returns 0x4244C080
T777C 007:884.085 JLINK_ReadReg(FPS12)
T777C 007:884.137 - 0.051ms returns 0x7105180D
T777C 007:884.142 JLINK_ReadReg(FPS13)
T777C 007:884.148 - 0.005ms returns 0xE53E7F18
T777C 007:884.153 JLINK_ReadReg(FPS14)
T777C 007:884.158 - 0.004ms returns 0x3A60EEE7
T777C 007:884.164 JLINK_ReadReg(FPS15)
T777C 007:884.169 - 0.005ms returns 0x7D34F6FE
T777C 007:884.175 JLINK_ReadReg(FPS16)
T777C 007:884.180 - 0.005ms returns 0x0B6C0F9B
T777C 007:884.185 JLINK_ReadReg(FPS17)
T777C 007:884.190 - 0.005ms returns 0xF1C76D00
T777C 007:884.197 JLINK_ReadReg(FPS18)
T777C 007:884.201 - 0.005ms returns 0xA462607F
T777C 007:884.207 JLINK_ReadReg(FPS19)
T777C 007:884.212 - 0.005ms returns 0x28ECF580
T777C 007:884.217 JLINK_ReadReg(FPS20)
T777C 007:884.223 - 0.004ms returns 0xEE0448D4
T777C 007:884.229 JLINK_ReadReg(FPS21)
T777C 007:884.233 - 0.005ms returns 0x602C4064
T777C 007:884.239 JLINK_ReadReg(FPS22)
T777C 007:884.244 - 0.005ms returns 0xB4CC7D40
T777C 007:884.250 JLINK_ReadReg(FPS23)
T777C 007:884.255 - 0.005ms returns 0x83D80E09
T777C 007:884.261 JLINK_ReadReg(FPS24)
T777C 007:884.265 - 0.005ms returns 0x45CBC890
T777C 007:884.271 JLINK_ReadReg(FPS25)
T777C 007:884.277 - 0.005ms returns 0xE1ECC96E
T777C 007:884.282 JLINK_ReadReg(FPS26)
T777C 007:884.287 - 0.005ms returns 0x8B234C76
T777C 007:884.293 JLINK_ReadReg(FPS27)
T777C 007:884.297 - 0.005ms returns 0x4DA84000
T777C 007:884.304 JLINK_ReadReg(FPS28)
T777C 007:884.309 - 0.005ms returns 0x625F82DB
T777C 007:884.314 JLINK_ReadReg(FPS29)
T777C 007:884.320 - 0.005ms returns 0x62E46688
T777C 007:884.325 JLINK_ReadReg(FPS30)
T777C 007:884.330 - 0.005ms returns 0xA6AC2D10
T777C 007:884.336 JLINK_ReadReg(FPS31)
T777C 007:884.341 - 0.005ms returns 0xA65E6130
T777C 007:962.682 JLINK_ReadMemEx(0x20000090, 0x4 Bytes, Flags = 0x02000000)
T777C 007:962.725   CPU_ReadMem(64 bytes @ 0x20000080)
T777C 007:964.889    -- Updating C cache (64 bytes @ 0x20000080)
T777C 007:964.918    -- Read from C cache (4 bytes @ 0x20000090)
T777C 007:964.926   Data:  0A 00 80 06
T777C 007:964.935 - 2.253ms returns 4 (0x4)
T777C 007:973.755 JLINK_ReadMemEx(0x20000090, 0x4 Bytes, Flags = 0x02000000)
T777C 007:973.851    -- Read from C cache (4 bytes @ 0x20000090)
T777C 007:973.860   Data:  0A 00 80 06
T777C 007:973.869 - 0.114ms returns 4 (0x4)
T777C 007:973.897 JLINK_ReadMemEx(0x20000090, 0x4 Bytes, Flags = 0x02000000)
T777C 007:973.904    -- Read from C cache (4 bytes @ 0x20000090)
T777C 007:973.911   Data:  0A 00 80 06
T777C 007:973.918 - 0.020ms returns 4 (0x4)
T777C 007:978.885 JLINK_ReadMemEx(0x20000078, 0x2 Bytes, Flags = 0x02000000)
T777C 007:978.935   CPU_ReadMem(64 bytes @ 0x20000040)
T777C 007:980.323    -- Updating C cache (64 bytes @ 0x20000040)
T777C 007:980.375    -- Read from C cache (2 bytes @ 0x20000078)
T777C 007:980.384   Data:  FF E7
T777C 007:980.393 - 1.507ms returns 2 (0x2)
T777C 007:980.461 JLINK_ReadMemEx(0x20000078, 0x2 Bytes, Flags = 0x02000000)
T777C 007:980.470    -- Read from C cache (2 bytes @ 0x20000078)
T777C 007:980.478   Data:  FF E7
T777C 007:980.485 - 0.024ms returns 2 (0x2)
T777C 007:980.513 JLINK_ReadMemEx(0x20000078, 0x2 Bytes, Flags = 0x02000000)
T777C 007:980.518    -- Read from C cache (2 bytes @ 0x20000078)
T777C 007:980.526   Data:  FF E7
T777C 007:980.533 - 0.020ms returns 2 (0x2)
T777C 007:982.349 JLINK_ReadMemEx(0x20003D2A, 0x20 Bytes, Flags = 0x02000000)
T777C 007:982.381   CPU_ReadMem(128 bytes @ 0x20003D00)
T777C 007:983.250    -- Updating C cache (128 bytes @ 0x20003D00)
T777C 007:983.260    -- Read from C cache (32 bytes @ 0x20003D2A)
T777C 007:983.269   Data:  00 00 00 00 00 00 00 00 00 00 00 00 00 00 00 00 ...
T777C 007:983.277 - 0.928ms returns 32 (0x20)
T777C 008:017.171 JLINK_ReadMemEx(0x00000000, 0x2 Bytes, Flags = 0x02000000)
T777C 008:017.211   CPU_ReadMem(2 bytes @ 0x00000000)
T777C 008:017.451   Data:  70 53
T777C 008:017.459 - 0.288ms returns 2 (0x2)
T777C 008:017.553 JLINK_ReadMemEx(0x00000000, 0x2 Bytes, Flags = 0x02000000)
T777C 008:017.561   CPU_ReadMem(2 bytes @ 0x00000000)
T777C 008:017.757   Data:  70 53
T777C 008:017.765 - 0.212ms returns 2 (0x2)
T777C 008:017.784 JLINK_ReadMemEx(0x00000000, 0x2 Bytes, Flags = 0x02000000)
T777C 008:017.790   CPU_ReadMem(2 bytes @ 0x00000000)
T777C 008:017.989   Data:  70 53
T777C 008:017.997 - 0.213ms returns 2 (0x2)
TA05C 008:197.933 JLINK_ReadMemEx(0x080001C0, 0x2 Bytes, Flags = 0x02000000)
TA05C 008:198.014   CPU_ReadMem(64 bytes @ 0x080001C0)
TA05C 008:198.569    -- Updating C cache (64 bytes @ 0x080001C0)
TA05C 008:198.609    -- Read from C cache (2 bytes @ 0x080001C0)
TA05C 008:198.619   Data:  06 48
TA05C 008:198.629 - 0.698ms returns 2 (0x2)
TA05C 008:198.640 JLINK_HasError()
TA05C 008:198.657 JLINK_SetBPEx(Addr = 0x08001154, Type = 0xFFFFFFF2)
TA05C 008:198.667 - 0.009ms returns 0x00000001
TA05C 008:198.673 JLINK_HasError()
TA05C 008:198.679 JLINK_SetBPEx(Addr = 0x08001850, Type = 0xFFFFFFF2)
TA05C 008:198.685 - 0.006ms returns 0x00000002
TA05C 008:198.691 JLINK_HasError()
TA05C 008:198.697 JLINK_SetBPEx(Addr = 0x080011AA, Type = 0xFFFFFFF2)
TA05C 008:198.702 - 0.005ms returns 0x00000003
TA05C 008:198.709 JLINK_HasError()
TA05C 008:198.715 JLINK_SetBPEx(Addr = 0x08000A56, Type = 0xFFFFFFF2)
TA05C 008:198.721 - 0.005ms returns 0x00000004
TA05C 008:198.726 JLINK_HasError()
TA05C 008:198.733 JLINK_SetBPEx(Addr = 0x08000A3C, Type = 0xFFFFFFF2)
TA05C 008:198.738 - 0.005ms returns 0x00000005
TA05C 008:198.746 JLINK_HasError()
TA05C 008:198.753 JLINK_SetBPEx(Addr = 0x080018EC, Type = 0xFFFFFFF2)
TA05C 008:198.760 - 0.006ms returns 0x00000006
TA05C 008:198.766 JLINK_HasError()
TA05C 008:198.773 JLINK_SetBPEx(Addr = 0x080018F0, Type = 0xFFFFFFF2)
TA05C 008:198.781    -- BP[0] @ 0x08001154 converted into FlashBP
TA05C 008:198.789 - 0.016ms returns 0x00000007
TA05C 008:198.794 JLINK_HasError()
TA05C 008:198.801 JLINK_HasError()
TA05C 008:198.807 JLINK_Go()
TA05C 008:198.819    -- Read from C cache (2 bytes @ 0x080001C0)
TA05C 008:198.829   CPU_ReadMem(4 bytes @ 0xE000ED18)
TA05C 008:199.160   CPU_WriteMem(4 bytes @ 0xE000ED18)
TA05C 008:199.480   CPU_ReadMem(4 bytes @ 0xE000ED18)
TA05C 008:199.763   CPU_WriteMem(4 bytes @ 0xE000ED18)
TA05C 008:200.021    -- Read from C cache (4 bytes @ 0x080001DC)
TA05C 008:200.033   -- Simulated
TA05C 008:200.042    -- Read from C cache (2 bytes @ 0x080001C2)
TA05C 008:200.051   -- Simulated
TA05C 008:200.061   CPU_ReadMem(64 bytes @ 0x08000400)
TA05C 008:200.572    -- Updating C cache (64 bytes @ 0x08000400)
TA05C 008:200.582    -- Read from C cache (2 bytes @ 0x08000420)
TA05C 008:200.592   CPU_ReadMem(64 bytes @ 0x08000480)
TA05C 008:201.064    -- Updating C cache (64 bytes @ 0x08000480)
TA05C 008:201.073    -- Read from C cache (4 bytes @ 0x0800049C)
TA05C 008:201.082   -- Simulated
TA05C 008:201.090    -- Read from C cache (2 bytes @ 0x08000422)
TA05C 008:201.101   CPU_WriteMem(8 bytes @ 0x20005368)
TA05C 008:201.331   -- Simulated
TA05C 008:201.345    -- Read from C cache (2 bytes @ 0x08000424)
TA05C 008:201.353   -- Not simulated
TA05C 008:201.364   CPU_ReadMem(4 bytes @ 0xE000ED90)
TA05C 008:201.586   CPU_ReadMem(4 bytes @ 0xE000ED94)
TA05C 008:201.815    -- Start of preparing flash programming
TA05C 008:201.837    -- Calculating RAM usage
TA05C 008:206.248    -- RAM usage = 10004 Bytes
TA05C 008:206.278    -- Preserving CPU registers
TA05C 008:206.309    -- Preparing target
TA05C 008:206.317    -- Preserving target RAM temporarily used for programming
TA05C 008:245.577    -- Downloading RAMCode
TA05C 008:256.795    -- Preparing RAMCode
TA05C 008:260.445    -- End of preparing flash programming
TA05C 008:260.492   CPU_ReadMem(16384 bytes @ 0x08000000)
TA05C 008:324.470    -- Updating flash cache (16384 bytes @ 0x08000000)
TA05C 008:324.535    -- Updating flash cache invalid range 0x08000000 - 0x08003FFF (16384 bytes)
TA05C 008:324.550    -- Programming range 0x08000000 - 0x08003FFF (  1 Sector, 16 KB)
TA05C 008:730.215    -- Start of restoring
TA05C 008:730.249    -- Restoring RAMCode
TA05C 008:732.683    -- Restoring target memory
TA05C 008:766.598    -- Restore target
TA05C 008:766.632    -- Restoring CPU registers
TA05C 008:766.654    -- End of restoring
TA05C 008:766.670   CPU_WriteMem(4 bytes @ 0xE0002000)
TA05C 008:766.950   CPU_WriteMem(4 bytes @ 0xE0002000)
TA05C 008:767.158   CPU_WriteMem(4 bytes @ 0xE0002000)
TA05C 008:767.372   CPU_WriteMem(4 bytes @ 0xE0002000)
TA05C 008:767.595   CPU_WriteMem(4 bytes @ 0xE0002000)
TA05C 008:767.812   CPU_WriteMem(4 bytes @ 0xE0002000)
TA05C 008:768.038   CPU_ReadMem(4 bytes @ 0xE0001000)
TA05C 008:768.254   CPU_WriteMem(4 bytes @ 0xE0002008)
TA05C 008:768.263   CPU_WriteMem(4 bytes @ 0xE000200C)
TA05C 008:768.270   CPU_WriteMem(4 bytes @ 0xE0002010)
TA05C 008:768.278   CPU_WriteMem(4 bytes @ 0xE0002014)
TA05C 008:768.286   CPU_WriteMem(4 bytes @ 0xE0002018)
TA05C 008:768.294   CPU_WriteMem(4 bytes @ 0xE000201C)
TA05C 008:776.198   Memory map 'after startup completion point' is active
TA05C 008:776.243 - 577.435ms
TA05C 008:876.386 JLINK_HasError()
TA05C 008:876.422 JLINK_IsHalted()
TA05C 008:878.461 - 2.037ms returns TRUE
TA05C 008:878.508 JLINK_HasError()
TA05C 008:878.520 JLINK_Halt()
TA05C 008:878.531 - 0.010ms returns 0x00
TA05C 008:878.566 JLINK_IsHalted()
TA05C 008:878.575 - 0.009ms returns TRUE
TA05C 008:878.582 JLINK_IsHalted()
TA05C 008:878.588 - 0.005ms returns TRUE
TA05C 008:878.594 JLINK_IsHalted()
TA05C 008:878.599 - 0.005ms returns TRUE
TA05C 008:878.606 JLINK_HasError()
TA05C 008:878.614 JLINK_ReadReg(R15 (PC))
TA05C 008:878.623 - 0.009ms returns 0x08001154
TA05C 008:878.630 JLINK_ReadReg(XPSR)
TA05C 008:878.635 - 0.005ms returns 0x61000000
TA05C 008:878.646 JLINK_HasError()
TA05C 008:878.653 JLINK_ClrBPEx(BPHandle = 0x00000001)
TA05C 008:878.659 - 0.006ms returns 0x00
TA05C 008:878.666 JLINK_HasError()
TA05C 008:878.673 JLINK_ClrBPEx(BPHandle = 0x00000002)
TA05C 008:878.678 - 0.005ms returns 0x00
TA05C 008:878.685 JLINK_HasError()
TA05C 008:878.691 JLINK_ClrBPEx(BPHandle = 0x00000003)
TA05C 008:878.697 - 0.005ms returns 0x00
TA05C 008:878.703 JLINK_HasError()
TA05C 008:878.710 JLINK_ClrBPEx(BPHandle = 0x00000004)
TA05C 008:878.720 - 0.010ms returns 0x00
TA05C 008:878.729 JLINK_HasError()
TA05C 008:878.734 JLINK_ClrBPEx(BPHandle = 0x00000005)
TA05C 008:878.741 - 0.005ms returns 0x00
TA05C 008:878.746 JLINK_HasError()
TA05C 008:878.753 JLINK_ClrBPEx(BPHandle = 0x00000006)
TA05C 008:878.758 - 0.005ms returns 0x00
TA05C 008:878.765 JLINK_HasError()
TA05C 008:878.771 JLINK_ClrBPEx(BPHandle = 0x00000007)
TA05C 008:878.777 - 0.005ms returns 0x00
TA05C 008:878.783 JLINK_HasError()
TA05C 008:878.789 JLINK_HasError()
TA05C 008:878.796 JLINK_ReadMemU32(0xE000ED30, 0x1 Items)
TA05C 008:878.811   CPU_ReadMem(4 bytes @ 0xE000ED30)
TA05C 008:879.134   Data:  02 00 00 00
TA05C 008:879.156 - 0.360ms returns 1 (0x1)
TA05C 008:879.166 JLINK_ReadMemU32(0xE0001028, 0x1 Items)
TA05C 008:879.177   CPU_ReadMem(4 bytes @ 0xE0001028)
TA05C 008:879.405   Data:  00 00 00 00
TA05C 008:879.423   Debug reg: DWT_FUNC[0]
TA05C 008:879.432 - 0.266ms returns 1 (0x1)
TA05C 008:879.441 JLINK_ReadMemU32(0xE0001038, 0x1 Items)
TA05C 008:879.450   CPU_ReadMem(4 bytes @ 0xE0001038)
TA05C 008:879.661   Data:  00 02 00 00
TA05C 008:879.674   Debug reg: DWT_FUNC[1]
TA05C 008:879.682 - 0.242ms returns 1 (0x1)
TA05C 008:879.691 JLINK_ReadMemU32(0xE0001048, 0x1 Items)
TA05C 008:879.699   CPU_ReadMem(4 bytes @ 0xE0001048)
TA05C 008:879.981   Data:  00 00 00 00
TA05C 008:879.990   Debug reg: DWT_FUNC[2]
TA05C 008:879.998 - 0.306ms returns 1 (0x1)
TA05C 008:880.005 JLINK_ReadMemU32(0xE0001058, 0x1 Items)
TA05C 008:880.011   CPU_ReadMem(4 bytes @ 0xE0001058)
TA05C 008:880.269   Data:  00 00 00 00
TA05C 008:880.288   Debug reg: DWT_FUNC[3]
TA05C 008:880.296 - 0.291ms returns 1 (0x1)
TA05C 008:880.349 JLINK_HasError()
TA05C 008:880.357 JLINK_ReadReg(R0)
TA05C 008:880.365 - 0.008ms returns 0x08001155
TA05C 008:880.371 JLINK_ReadReg(R1)
TA05C 008:880.377 - 0.005ms returns 0x20005370
TA05C 008:880.383 JLINK_ReadReg(R2)
TA05C 008:880.389 - 0.005ms returns 0x00000000
TA05C 008:880.394 JLINK_ReadReg(R3)
TA05C 008:880.400 - 0.005ms returns 0x080004E1
TA05C 008:880.406 JLINK_ReadReg(R4)
TA05C 008:880.412 - 0.005ms returns 0x080034DC
TA05C 008:880.418 JLINK_ReadReg(R5)
TA05C 008:880.423 - 0.005ms returns 0x080034DC
TA05C 008:880.430 JLINK_ReadReg(R6)
TA05C 008:880.435 - 0.005ms returns 0x00000000
TA05C 008:880.441 JLINK_ReadReg(R7)
TA05C 008:880.446 - 0.005ms returns 0x00000000
TA05C 008:880.453 JLINK_ReadReg(R8)
TA05C 008:880.458 - 0.005ms returns 0x00000000
TA05C 008:880.464 JLINK_ReadReg(R9)
TA05C 008:880.470 - 0.005ms returns 0x20000348
TA05C 008:880.476 JLINK_ReadReg(R10)
TA05C 008:880.482 - 0.005ms returns 0x00000000
TA05C 008:880.488 JLINK_ReadReg(R11)
TA05C 008:880.493 - 0.005ms returns 0x00000000
TA05C 008:880.499 JLINK_ReadReg(R12)
TA05C 008:880.505 - 0.005ms returns 0x00000000
TA05C 008:880.510 JLINK_ReadReg(R13 (SP))
TA05C 008:880.517 - 0.005ms returns 0x20005370
TA05C 008:880.523 JLINK_ReadReg(R14)
TA05C 008:880.528 - 0.005ms returns 0x080002C5
TA05C 008:880.534 JLINK_ReadReg(R15 (PC))
TA05C 008:880.540 - 0.005ms returns 0x08001154
TA05C 008:880.546 JLINK_ReadReg(XPSR)
TA05C 008:880.552 - 0.005ms returns 0x61000000
TA05C 008:880.558 JLINK_ReadReg(MSP)
TA05C 008:880.563 - 0.005ms returns 0x20005370
TA05C 008:880.570 JLINK_ReadReg(PSP)
TA05C 008:880.574 - 0.005ms returns 0x20001000
TA05C 008:880.581 JLINK_ReadReg(CFBP)
TA05C 008:880.586 - 0.005ms returns 0x00000000
TA05C 008:880.593 JLINK_ReadReg(FPSCR)
TA05C 008:884.772 - 4.178ms returns 0x00000000
TA05C 008:884.801 JLINK_ReadReg(FPS0)
TA05C 008:884.808 - 0.007ms returns 0x86061790
TA05C 008:884.814 JLINK_ReadReg(FPS1)
TA05C 008:884.821 - 0.005ms returns 0xADE4C008
TA05C 008:884.826 JLINK_ReadReg(FPS2)
TA05C 008:884.832 - 0.005ms returns 0x726C7902
TA05C 008:884.838 JLINK_ReadReg(FPS3)
TA05C 008:884.844 - 0.005ms returns 0x21FFDEC9
TA05C 008:884.850 JLINK_ReadReg(FPS4)
TA05C 008:884.855 - 0.005ms returns 0x69B5E033
TA05C 008:884.862 JLINK_ReadReg(FPS5)
TA05C 008:884.867 - 0.005ms returns 0x55E4E0DC
TA05C 008:884.874 JLINK_ReadReg(FPS6)
TA05C 008:884.882 - 0.009ms returns 0xE3549700
TA05C 008:884.891 JLINK_ReadReg(FPS7)
TA05C 008:884.897 - 0.005ms returns 0x71445402
TA05C 008:885.115 JLINK_ReadReg(FPS8)
TA05C 008:885.146 - 0.030ms returns 0xE3D91C90
TA05C 008:885.158 JLINK_ReadReg(FPS9)
TA05C 008:885.168 - 0.010ms returns 0xDEE0EA4B
TA05C 008:885.179 JLINK_ReadReg(FPS10)
TA05C 008:885.189 - 0.009ms returns 0xDEDA6AD9
TA05C 008:885.199 JLINK_ReadReg(FPS11)
TA05C 008:885.210 - 0.009ms returns 0x4244C080
TA05C 008:885.220 JLINK_ReadReg(FPS12)
TA05C 008:885.230 - 0.009ms returns 0x7105180D
TA05C 008:885.240 JLINK_ReadReg(FPS13)
TA05C 008:885.250 - 0.009ms returns 0xE53E7F18
TA05C 008:885.260 JLINK_ReadReg(FPS14)
TA05C 008:885.270 - 0.009ms returns 0x3A60EEE7
TA05C 008:885.281 JLINK_ReadReg(FPS15)
TA05C 008:885.290 - 0.009ms returns 0x7D34F6FE
TA05C 008:885.309 JLINK_ReadReg(FPS16)
TA05C 008:885.351 - 0.040ms returns 0x0B6C0F9B
TA05C 008:885.365 JLINK_ReadReg(FPS17)
TA05C 008:885.370 - 0.005ms returns 0xF1C76D00
TA05C 008:885.377 JLINK_ReadReg(FPS18)
TA05C 008:885.382 - 0.005ms returns 0xA462607F
TA05C 008:885.389 JLINK_ReadReg(FPS19)
TA05C 008:885.394 - 0.005ms returns 0x28ECF580
TA05C 008:885.400 JLINK_ReadReg(FPS20)
TA05C 008:885.406 - 0.005ms returns 0xEE0448D4
TA05C 008:885.412 JLINK_ReadReg(FPS21)
TA05C 008:885.418 - 0.005ms returns 0x602C4064
TA05C 008:885.423 JLINK_ReadReg(FPS22)
TA05C 008:885.429 - 0.005ms returns 0xB4CC7D40
TA05C 008:885.435 JLINK_ReadReg(FPS23)
TA05C 008:885.441 - 0.005ms returns 0x83D80E09
TA05C 008:885.446 JLINK_ReadReg(FPS24)
TA05C 008:885.452 - 0.005ms returns 0x45CBC890
TA05C 008:885.458 JLINK_ReadReg(FPS25)
TA05C 008:885.464 - 0.005ms returns 0xE1ECC96E
TA05C 008:885.470 JLINK_ReadReg(FPS26)
TA05C 008:885.475 - 0.005ms returns 0x8B234C76
TA05C 008:885.482 JLINK_ReadReg(FPS27)
TA05C 008:885.487 - 0.005ms returns 0x4DA84000
TA05C 008:885.493 JLINK_ReadReg(FPS28)
TA05C 008:885.498 - 0.005ms returns 0x625F82DB
TA05C 008:885.505 JLINK_ReadReg(FPS29)
TA05C 008:885.510 - 0.005ms returns 0x62E46688
TA05C 008:885.516 JLINK_ReadReg(FPS30)
TA05C 008:885.522 - 0.005ms returns 0xA6AC2D10
TA05C 008:885.528 JLINK_ReadReg(FPS31)
TA05C 008:885.534 - 0.005ms returns 0xA65E6130
T777C 008:895.908 JLINK_HasError()
T777C 008:895.954 JLINK_ReadMemU32(0xE0001004, 0x1 Items)
T777C 008:895.974   CPU_ReadMem(4 bytes @ 0xE0001004)
T777C 008:896.274   Data:  C0 EA 73 00
T777C 008:896.287   Debug reg: DWT_CYCCNT
T777C 008:896.296 - 0.342ms returns 1 (0x1)
T777C 008:898.232 JLINK_ReadMemEx(0x20000090, 0x4 Bytes, Flags = 0x02000000)
T777C 008:898.269   CPU_ReadMem(64 bytes @ 0x20000080)
T777C 008:898.850    -- Updating C cache (64 bytes @ 0x20000080)
T777C 008:898.862    -- Read from C cache (4 bytes @ 0x20000090)
T777C 008:898.870   Data:  00 00 00 00
T777C 008:898.879 - 0.647ms returns 4 (0x4)
T777C 008:902.796 JLINK_ReadMemEx(0x20000078, 0x2 Bytes, Flags = 0x02000000)
T777C 008:902.827   CPU_ReadMem(64 bytes @ 0x20000040)
T777C 008:903.388    -- Updating C cache (64 bytes @ 0x20000040)
T777C 008:903.399    -- Read from C cache (2 bytes @ 0x20000078)
T777C 008:903.408   Data:  00 00
T777C 008:903.417 - 0.621ms returns 2 (0x2)
T777C 008:903.625 JLINK_ReadMemEx(0x20003D2A, 0x20 Bytes, Flags = 0x02000000)
T777C 008:903.638   CPU_ReadMem(128 bytes @ 0x20003D00)
T777C 008:904.438    -- Updating C cache (128 bytes @ 0x20003D00)
T777C 008:904.448    -- Read from C cache (32 bytes @ 0x20003D2A)
T777C 008:904.457   Data:  00 00 00 00 00 00 00 00 00 00 00 00 00 00 00 00 ...
T777C 008:904.466 - 0.841ms returns 32 (0x20)
T777C 008:908.070 JLINK_ReadMemEx(0x00000000, 0x2 Bytes, Flags = 0x02000000)
T777C 008:908.118   CPU_ReadMem(2 bytes @ 0x00000000)
T777C 008:908.608   Data:  70 53
T777C 008:908.634 - 0.565ms returns 2 (0x2)
T777C 008:909.863 JLINK_ReadMemEx(0x40011000, 0x14 Bytes, Flags = 0x02000004)
T777C 008:909.891   CPU_ReadMem(20 bytes @ 0x40011000)
T777C 008:910.222   Data:  C0 00 00 00 00 00 00 00 00 00 00 00 00 00 00 00 ...
T777C 008:910.234 - 0.370ms returns 20 (0x14)
T777C 008:910.246 JLINK_ReadMemEx(0x40011014, 0x4 Bytes, Flags = 0x02000004)
T777C 008:910.264   CPU_ReadMem(4 bytes @ 0x40011014)
T777C 008:910.471   Data:  00 00 00 00
T777C 008:910.485 - 0.238ms returns 4 (0x4)
T777C 008:910.494 JLINK_ReadMemEx(0x4001101C, 0x4 Bytes, Flags = 0x02000004)
T777C 008:910.502   CPU_ReadMem(4 bytes @ 0x4001101C)
T777C 008:910.762   Data:  00 00 00 00
T777C 008:910.776 - 0.281ms returns 4 (0x4)
T777C 008:910.786 JLINK_ReadMemEx(0x40011080, 0x8 Bytes, Flags = 0x02000004)
T777C 008:910.794   CPU_ReadMem(8 bytes @ 0x40011080)
T777C 008:911.033   Data:  00 00 00 00 00 00 00 00
T777C 008:911.054 - 0.266ms returns 8 (0x8)
T777C 008:911.067 JLINK_ReadMemEx(0x40011088, 0x4 Bytes, Flags = 0x02000004)
T777C 008:911.078   CPU_ReadMem(4 bytes @ 0x40011088)
T777C 008:911.335   Data:  00 00 00 00
T777C 008:911.346 - 0.279ms returns 4 (0x4)
T777C 008:911.356 JLINK_ReadMemEx(0x400110C0, 0x4 Bytes, Flags = 0x02000004)
T777C 008:911.363   CPU_ReadMem(4 bytes @ 0x400110C0)
T777C 008:911.602   Data:  00 00 00 00
T777C 008:911.616 - 0.260ms returns 4 (0x4)
T777C 008:915.178 JLINK_ReadMemEx(0x40013C00, 0x14 Bytes, Flags = 0x02000004)
T777C 008:915.219   CPU_ReadMem(20 bytes @ 0x40013C00)
T777C 008:915.616   Data:  00 00 00 00 00 00 00 00 00 00 00 00 00 00 00 00 ...
T777C 008:915.633 - 0.456ms returns 20 (0x14)
T777C 008:915.645 JLINK_ReadMemEx(0x40013C14, 0x4 Bytes, Flags = 0x02000004)
T777C 008:915.654   CPU_ReadMem(4 bytes @ 0x40013C14)
T777C 008:915.951   Data:  00 00 00 00
T777C 008:915.965 - 0.319ms returns 4 (0x4)
T777C 008:917.960 JLINK_ReadMemEx(0x40007000, 0x4 Bytes, Flags = 0x02000004)
T777C 008:917.979   CPU_ReadMem(4 bytes @ 0x40007000)
T777C 008:918.247   Data:  00 C0 03 00
T777C 008:918.261 - 0.302ms returns 4 (0x4)
T777C 008:918.271 JLINK_ReadMemEx(0x40007004, 0x4 Bytes, Flags = 0x02000004)
T777C 008:918.279   CPU_ReadMem(4 bytes @ 0x40007004)
T777C 008:918.517   Data:  00 40 03 00
T777C 008:918.528 - 0.257ms returns 4 (0x4)
TA05C 010:246.558 JLINK_ReadMemEx(0x08001154, 0x2 Bytes, Flags = 0x02000000)
TA05C 010:246.597    -- Merging zombie BP[0]: 0xE92D @ 0x08001154
TA05C 010:246.606    -- Merging zombie BP[0]: 0xE92D @ 0x08001154
TA05C 010:246.613   Data:  2D E9
TA05C 010:246.622 - 0.063ms returns 2 (0x2)
TA05C 010:246.629 JLINK_HasError()
TA05C 010:246.638 JLINK_SetBPEx(Addr = 0x08001850, Type = 0xFFFFFFF2)
TA05C 010:246.647 - 0.009ms returns 0x00000008
TA05C 010:246.653 JLINK_HasError()
TA05C 010:246.659 JLINK_SetBPEx(Addr = 0x080011AA, Type = 0xFFFFFFF2)
TA05C 010:246.664 - 0.005ms returns 0x00000009
TA05C 010:246.670 JLINK_HasError()
TA05C 010:246.676 JLINK_SetBPEx(Addr = 0x08000A56, Type = 0xFFFFFFF2)
TA05C 010:246.682 - 0.005ms returns 0x0000000A
TA05C 010:246.687 JLINK_HasError()
TA05C 010:246.693 JLINK_SetBPEx(Addr = 0x08000A3C, Type = 0xFFFFFFF2)
TA05C 010:246.698 - 0.005ms returns 0x0000000B
TA05C 010:246.703 JLINK_HasError()
TA05C 010:246.710 JLINK_SetBPEx(Addr = 0x080018EC, Type = 0xFFFFFFF2)
TA05C 010:246.714 - 0.005ms returns 0x0000000C
TA05C 010:246.720 JLINK_HasError()
TA05C 010:246.726 JLINK_SetBPEx(Addr = 0x080018F0, Type = 0xFFFFFFF2)
TA05C 010:246.731 - 0.005ms returns 0x0000000D
TA05C 010:246.737 JLINK_HasError()
TA05C 010:246.742 JLINK_HasError()
TA05C 010:246.749 JLINK_Go()
TA05C 010:247.030    -- Merging zombie BP[0]: 0xE92D @ 0x08001154
TA05C 010:247.039    -- Merging zombie BP[0]: 0xE92D @ 0x08001154
TA05C 010:247.050    -- Read from flash cache (2 bytes @ 0x08001156)
TA05C 010:247.057   -- Not simulated
TA05C 010:247.069   CPU_ReadMem(4 bytes @ 0xE000ED90)
TA05C 010:247.298   CPU_ReadMem(4 bytes @ 0xE000ED94)
TA05C 010:247.522    -- Start of preparing flash programming
TA05C 010:247.531    -- Calculating RAM usage
TA05C 010:247.548    -- RAM usage = 10004 Bytes
TA05C 010:247.556    -- Preserving CPU registers
TA05C 010:247.573    -- Preparing target
TA05C 010:247.581    -- Preserving target RAM temporarily used for programming
TA05C 010:286.894    -- Downloading RAMCode
TA05C 010:297.771    -- Preparing RAMCode
TA05C 010:301.269    -- End of preparing flash programming
TA05C 010:301.402    -- Read from flash cache (16384 bytes @ 0x08000000)
TA05C 010:301.430    -- Programming range 0x08000000 - 0x08003FFF (  1 Sector, 16 KB)
TA05C 010:606.900    -- Start of restoring
TA05C 010:606.933    -- Restoring RAMCode
TA05C 010:609.616    -- Restoring target memory
TA05C 010:643.665    -- Restore target
TA05C 010:643.696    -- Restoring CPU registers
TA05C 010:643.714    -- End of restoring
TA05C 010:643.727   CPU_WriteMem(4 bytes @ 0xE0002000)
TA05C 010:644.086   CPU_WriteMem(4 bytes @ 0xE0002000)
TA05C 010:644.389   CPU_WriteMem(4 bytes @ 0xE0002000)
TA05C 010:644.762   CPU_WriteMem(4 bytes @ 0xE0002000)
TA05C 010:645.142   CPU_WriteMem(4 bytes @ 0xE0002000)
TA05C 010:645.410   CPU_WriteMem(4 bytes @ 0xE0002000)
TA05C 010:645.670   CPU_ReadMem(4 bytes @ 0xE0001000)
TA05C 010:648.042 - 401.293ms
TA05C 010:748.227 JLINK_HasError()
TA05C 010:748.272 JLINK_IsHalted()
TA05C 010:750.431 - 2.157ms returns TRUE
TA05C 010:750.496 JLINK_HasError()
TA05C 010:750.522 JLINK_Halt()
TA05C 010:750.543 - 0.020ms returns 0x00
TA05C 010:750.568 JLINK_IsHalted()
TA05C 010:750.588 - 0.020ms returns TRUE
TA05C 010:750.610 JLINK_IsHalted()
TA05C 010:750.630 - 0.019ms returns TRUE
TA05C 010:750.654 JLINK_IsHalted()
TA05C 010:750.674 - 0.019ms returns TRUE
TA05C 010:750.696 JLINK_HasError()
TA05C 010:751.010 JLINK_ReadReg(R15 (PC))
TA05C 010:751.073 - 0.063ms returns 0x080011AA
TA05C 010:751.097 JLINK_ReadReg(XPSR)
TA05C 010:751.114 - 0.017ms returns 0x61000000
TA05C 010:751.139 JLINK_HasError()
TA05C 010:751.158 JLINK_ClrBPEx(BPHandle = 0x00000008)
TA05C 010:751.177 - 0.018ms returns 0x00
TA05C 010:751.195 JLINK_HasError()
TA05C 010:751.213 JLINK_ClrBPEx(BPHandle = 0x00000009)
TA05C 010:751.230 - 0.016ms returns 0x00
TA05C 010:751.246 JLINK_HasError()
TA05C 010:751.265 JLINK_ClrBPEx(BPHandle = 0x0000000A)
TA05C 010:751.281 - 0.016ms returns 0x00
TA05C 010:751.298 JLINK_HasError()
TA05C 010:751.315 JLINK_ClrBPEx(BPHandle = 0x0000000B)
TA05C 010:751.331 - 0.016ms returns 0x00
TA05C 010:751.349 JLINK_HasError()
TA05C 010:751.366 JLINK_ClrBPEx(BPHandle = 0x0000000C)
TA05C 010:751.382 - 0.016ms returns 0x00
TA05C 010:751.399 JLINK_HasError()
TA05C 010:751.418 JLINK_ClrBPEx(BPHandle = 0x0000000D)
TA05C 010:751.434 - 0.016ms returns 0x00
TA05C 010:751.450 JLINK_HasError()
TA05C 010:751.468 JLINK_HasError()
TA05C 010:751.487 JLINK_ReadMemU32(0xE000ED30, 0x1 Items)
TA05C 010:751.515   CPU_ReadMem(4 bytes @ 0xE000ED30)
TA05C 010:751.961   Data:  02 00 00 00
TA05C 010:751.986 - 0.499ms returns 1 (0x1)
TA05C 010:751.999 JLINK_ReadMemU32(0xE0001028, 0x1 Items)
TA05C 010:752.014   CPU_ReadMem(4 bytes @ 0xE0001028)
TA05C 010:752.414   Data:  00 00 00 00
TA05C 010:752.427   Debug reg: DWT_FUNC[0]
TA05C 010:752.438 - 0.439ms returns 1 (0x1)
TA05C 010:752.450 JLINK_ReadMemU32(0xE0001038, 0x1 Items)
TA05C 010:752.459   CPU_ReadMem(4 bytes @ 0xE0001038)
TA05C 010:752.800   Data:  00 02 00 00
TA05C 010:752.811   Debug reg: DWT_FUNC[1]
TA05C 010:752.822 - 0.370ms returns 1 (0x1)
TA05C 010:752.830 JLINK_ReadMemU32(0xE0001048, 0x1 Items)
TA05C 010:752.838   CPU_ReadMem(4 bytes @ 0xE0001048)
TA05C 010:753.149   Data:  00 00 00 00
TA05C 010:753.160   Debug reg: DWT_FUNC[2]
TA05C 010:753.170 - 0.340ms returns 1 (0x1)
TA05C 010:753.178 JLINK_ReadMemU32(0xE0001058, 0x1 Items)
TA05C 010:753.186   CPU_ReadMem(4 bytes @ 0xE0001058)
TA05C 010:753.501   Data:  00 00 00 00
TA05C 010:753.512   Debug reg: DWT_FUNC[3]
TA05C 010:753.522 - 0.343ms returns 1 (0x1)
TA05C 010:753.570 JLINK_HasError()
TA05C 010:753.579 JLINK_ReadReg(R0)
TA05C 010:753.589 - 0.009ms returns 0x00000017
TA05C 010:753.597 JLINK_ReadReg(R1)
TA05C 010:753.604 - 0.006ms returns 0x00000080
TA05C 010:753.611 JLINK_ReadReg(R2)
TA05C 010:753.618 - 0.006ms returns 0x00000007
TA05C 010:753.626 JLINK_ReadReg(R3)
TA05C 010:753.634 - 0.006ms returns 0x08000CDD
TA05C 010:753.641 JLINK_ReadReg(R4)
TA05C 010:753.648 - 0.007ms returns 0x40011000
TA05C 010:753.661 JLINK_ReadReg(R5)
TA05C 010:753.671 - 0.010ms returns 0x00000800
TA05C 010:753.679 JLINK_ReadReg(R6)
TA05C 010:753.686 - 0.006ms returns 0x00002710
TA05C 010:753.694 JLINK_ReadReg(R7)
TA05C 010:753.701 - 0.006ms returns 0x00000000
TA05C 010:753.708 JLINK_ReadReg(R8)
TA05C 010:753.715 - 0.006ms returns 0x00000000
TA05C 010:753.722 JLINK_ReadReg(R9)
TA05C 010:753.730 - 0.006ms returns 0x20000348
TA05C 010:753.738 JLINK_ReadReg(R10)
TA05C 010:753.745 - 0.006ms returns 0x00000000
TA05C 010:753.758 JLINK_ReadReg(R11)
TA05C 010:753.765 - 0.006ms returns 0x00000000
TA05C 010:753.773 JLINK_ReadReg(R12)
TA05C 010:753.780 - 0.006ms returns 0x017D7840
TA05C 010:753.788 JLINK_ReadReg(R13 (SP))
TA05C 010:753.795 - 0.007ms returns 0x20005358
TA05C 010:753.802 JLINK_ReadReg(R14)
TA05C 010:753.810 - 0.006ms returns 0x08000CF3
TA05C 010:753.818 JLINK_ReadReg(R15 (PC))
TA05C 010:753.825 - 0.007ms returns 0x080011AA
TA05C 010:753.833 JLINK_ReadReg(XPSR)
TA05C 010:753.840 - 0.006ms returns 0x61000000
TA05C 010:753.847 JLINK_ReadReg(MSP)
TA05C 010:753.854 - 0.006ms returns 0x20005358
TA05C 010:753.862 JLINK_ReadReg(PSP)
TA05C 010:753.869 - 0.006ms returns 0x20001000
TA05C 010:753.877 JLINK_ReadReg(CFBP)
TA05C 010:753.883 - 0.006ms returns 0x00000000
TA05C 010:753.891 JLINK_ReadReg(FPSCR)
TA05C 010:756.917 - 3.024ms returns 0x00000000
TA05C 010:756.958 JLINK_ReadReg(FPS0)
TA05C 010:756.978 - 0.018ms returns 0x86061790
TA05C 010:756.994 JLINK_ReadReg(FPS1)
TA05C 010:757.010 - 0.014ms returns 0xADE4C008
TA05C 010:757.025 JLINK_ReadReg(FPS2)
TA05C 010:757.040 - 0.014ms returns 0x726C7902
TA05C 010:757.055 JLINK_ReadReg(FPS3)
TA05C 010:757.070 - 0.014ms returns 0x21FFDEC9
TA05C 010:757.086 JLINK_ReadReg(FPS4)
TA05C 010:757.100 - 0.014ms returns 0x69B5E033
TA05C 010:757.116 JLINK_ReadReg(FPS5)
TA05C 010:757.131 - 0.014ms returns 0x55E4E0DC
TA05C 010:757.148 JLINK_ReadReg(FPS6)
TA05C 010:757.163 - 0.015ms returns 0xE3549700
TA05C 010:757.179 JLINK_ReadReg(FPS7)
TA05C 010:757.194 - 0.014ms returns 0x71445402
TA05C 010:757.209 JLINK_ReadReg(FPS8)
TA05C 010:757.223 - 0.014ms returns 0xE3D91C90
TA05C 010:757.238 JLINK_ReadReg(FPS9)
TA05C 010:757.274 - 0.034ms returns 0xDEE0EA4B
TA05C 010:757.298 JLINK_ReadReg(FPS10)
TA05C 010:757.305 - 0.007ms returns 0xDEDA6AD9
TA05C 010:757.313 JLINK_ReadReg(FPS11)
TA05C 010:757.319 - 0.006ms returns 0x4244C080
TA05C 010:757.326 JLINK_ReadReg(FPS12)
TA05C 010:757.333 - 0.006ms returns 0x7105180D
TA05C 010:757.340 JLINK_ReadReg(FPS13)
TA05C 010:757.346 - 0.006ms returns 0xE53E7F18
TA05C 010:757.354 JLINK_ReadReg(FPS14)
TA05C 010:757.360 - 0.006ms returns 0x3A60EEE7
TA05C 010:757.367 JLINK_ReadReg(FPS15)
TA05C 010:757.374 - 0.006ms returns 0x7D34F6FE
TA05C 010:757.381 JLINK_ReadReg(FPS16)
TA05C 010:757.387 - 0.006ms returns 0x0B6C0F9B
TA05C 010:757.394 JLINK_ReadReg(FPS17)
TA05C 010:757.401 - 0.006ms returns 0xF1C76D00
TA05C 010:757.410 JLINK_ReadReg(FPS18)
TA05C 010:757.417 - 0.006ms returns 0xA462607F
TA05C 010:757.424 JLINK_ReadReg(FPS19)
TA05C 010:757.430 - 0.006ms returns 0x28ECF580
TA05C 010:757.439 JLINK_ReadReg(FPS20)
TA05C 010:757.448 - 0.008ms returns 0xEE0448D4
TA05C 010:757.458 JLINK_ReadReg(FPS21)
TA05C 010:757.467 - 0.009ms returns 0x602C4064
TA05C 010:757.477 JLINK_ReadReg(FPS22)
TA05C 010:757.486 - 0.008ms returns 0xB4CC7D40
TA05C 010:757.494 JLINK_ReadReg(FPS23)
TA05C 010:757.502 - 0.008ms returns 0x83D80E09
TA05C 010:757.512 JLINK_ReadReg(FPS24)
TA05C 010:757.522 - 0.008ms returns 0x45CBC890
TA05C 010:757.530 JLINK_ReadReg(FPS25)
TA05C 010:757.540 - 0.009ms returns 0xE1ECC96E
TA05C 010:757.550 JLINK_ReadReg(FPS26)
TA05C 010:757.558 - 0.009ms returns 0x8B234C76
TA05C 010:757.568 JLINK_ReadReg(FPS27)
TA05C 010:757.578 - 0.009ms returns 0x4DA84000
TA05C 010:757.586 JLINK_ReadReg(FPS28)
TA05C 010:757.595 - 0.009ms returns 0x625F82DB
TA05C 010:757.605 JLINK_ReadReg(FPS29)
TA05C 010:757.613 - 0.008ms returns 0x62E46688
TA05C 010:757.625 JLINK_ReadReg(FPS30)
TA05C 010:757.633 - 0.008ms returns 0xA6AC2D10
TA05C 010:757.648 JLINK_ReadReg(FPS31)
TA05C 010:757.661 - 0.012ms returns 0xA65E6130
T777C 010:757.882 JLINK_ReadMemEx(0x2000536C, 0x4 Bytes, Flags = 0x02000000)
T777C 010:757.928   CPU_ReadMem(64 bytes @ 0x20005340)
T777C 010:758.531    -- Updating C cache (64 bytes @ 0x20005340)
T777C 010:758.592    -- Read from C cache (4 bytes @ 0x2000536C)
T777C 010:758.622   Data:  C5 02 00 08
T777C 010:758.653 - 0.769ms returns 4 (0x4)
T777C 010:758.790 JLINK_HasError()
T777C 010:758.815 JLINK_ReadMemU32(0xE0001004, 0x1 Items)
T777C 010:758.842   CPU_ReadMem(4 bytes @ 0xE0001004)
T777C 010:759.164   Data:  65 56 28 05
T777C 010:759.173   Debug reg: DWT_CYCCNT
T777C 010:759.181 - 0.366ms returns 1 (0x1)
T777C 010:759.421 JLINK_ReadMemEx(0x20000090, 0x4 Bytes, Flags = 0x02000000)
T777C 010:759.429   CPU_ReadMem(64 bytes @ 0x20000080)
T777C 010:760.107    -- Updating C cache (64 bytes @ 0x20000080)
T777C 010:760.185    -- Read from C cache (4 bytes @ 0x20000090)
T777C 010:760.192   Data:  00 00 00 00
T777C 010:760.200 - 0.778ms returns 4 (0x4)
T777C 010:763.659 JLINK_ReadMemEx(0x20000078, 0x2 Bytes, Flags = 0x02000000)
T777C 010:763.686   CPU_ReadMem(64 bytes @ 0x20000040)
T777C 010:764.294    -- Updating C cache (64 bytes @ 0x20000040)
T777C 010:764.304    -- Read from C cache (2 bytes @ 0x20000078)
T777C 010:764.310   Data:  00 00
T777C 010:764.317 - 0.658ms returns 2 (0x2)
T777C 010:764.475 JLINK_ReadMemEx(0x20003D2A, 0x20 Bytes, Flags = 0x02000000)
T777C 010:764.485   CPU_ReadMem(128 bytes @ 0x20003D00)
T777C 010:765.383    -- Updating C cache (128 bytes @ 0x20003D00)
T777C 010:765.466    -- Read from C cache (32 bytes @ 0x20003D2A)
T777C 010:765.520   Data:  00 00 00 00 00 00 00 00 00 00 00 00 00 00 00 00 ...
T777C 010:765.532 - 1.056ms returns 32 (0x20)
